{
  "os_version": ["uname -a"], 
  "cpu_info": ["cat /sys/devices/soc0/soc_id"],
  "memory_info": ["free -h | grep 'Mem:'"], 
  "top_info": ["top -b -n 1 | head -n 5"], 
  "disk_usage": ["cat /sys/block/mmcblk0/size"], 
  "uboot_version": ["dd if=/dev/mmcblk0boot0 bs=1M count=4 2>/dev/null | strings | grep \"U-Boot\" | grep -v \"SPL\" | tail -1"],
  "relative_state": ["i2ctransfer -f -y 2 w4@0x4c 0x03 0x51 0x00 0x0d r1; sleep 0.1; i2ctransfer -f -y 2 w4@0x4c 0x03 0x53 0x00 0x0d r2"], 
  "charging_voltage": ["i2ctransfer -f -y 2 w4@0x4c 0x03 0x51 0x00 0x15 r1; sleep 0.1; i2ctransfer -f -y 2 w4@0x4c 0x03 0x53 0x00 0x15 r2"], 
  "charging_current": ["i2ctransfer -f -y 2 w4@0x4c 0x03 0x51 0x00 0x14 r1; sleep 0.1; i2ctransfer -f -y 2 w4@0x4c 0x03 0x53 0x00 0x14 r2"], 
  "design_voltage": ["i2ctransfer -f -y 2 w4@0x4c 0x03 0x51 0x00 0x19 r1; sleep 0.1; i2ctransfer -f -y 2 w4@0x4c 0x03 0x53 0x00 0x19 r2"], 
  "design_capacity": ["i2ctransfer -f -y 2 w4@0x4c 0x03 0x51 0x00 0x18 r1; sleep 0.1; i2ctransfer -f -y 2 w4@0x4c 0x03 0x53 0x00 0x18 r2"], 
  "voltage": ["i2ctransfer -f -y 2 w4@0x4c 0x03 0x51 0x00 0x09 r1; sleep 0.1; i2ctransfer -f -y 2 w4@0x4c 0x03 0x53 0x00 0x09 r2"], 
  "current": ["i2ctransfer -f -y 2 w4@0x4c 0x03 0x51 0x00 0x0a r1; sleep 0.1; i2ctransfer -f -y 2 w4@0x4c 0x03 0x53 0x00 0x0a r2"], 
  "led_status": ["i2ctransfer -f -y 2 w4@0x4c 0x03 0x21 0x00 0x14 r1; sleep 0.1; i2ctransfer -f -y 2 w4@0x4c 0x03 0x23 0x00 0x14 r2"], 
  "interrupt_status": ["i2ctransfer -f -y 2 w4@0x4c 0x03 0x21 0x00 0x11 r1; sleep 0.1; i2ctransfer -f -y 2 w4@0x4c 0x03 0x23 0x00 0x11 r2"], 
  "battery_status": ["i2ctransfer -f -y 2 w4@0x4c 0x03 0x51 0x00 0x16 r1; sleep 0.1; i2ctransfer -f -y 2 w4@0x4c 0x03 0x53 0x00 0x16 r2"], 
  "temperature": ["i2ctransfer -f -y 2 w4@0x4c 0x03 0x51 0x00 0x08 r1; sleep 0.1; i2ctransfer -f -y 2 w4@0x4c 0x03 0x53 0x00 0x08 r2"], 
  "battery_serial": ["i2ctransfer -f -y 2 w4@0x4c 0x03 0x51 0x00 0x1C r1; sleep 0.1; i2ctransfer -f -y 2 w4@0x4c 0x03 0x53 0x00 0x1C r2"], 
  "battery_model": ["i2ctransfer -f -y 2 w4@0x4c 0x03 0x51 0x00 0x22 r1; sleep 0.1; i2ctransfer -f -y 2 w4@0x4c 0x03 0x53 0x00 0x22 r5"], 
  "pic_firmware": ["i2ctransfer -f -y 2 w4@0x4c 0x03 0x21 0x00 0x10 r1; sleep 0.1; i2ctransfer -f -y 2 w4@0x4c 0x03 0x23 0x00 0x10 r2"] 
} 